
T4BB0 000:048 SEGGER J-Link V4.76d Log File (0001ms, 0048ms total)
T4BB0 000:048 DLL Compiled: Sep 13 2013 16:35:06 (0001ms, 0048ms total)
T4BB0 000:048 Logging started @ 2014-03-29 20:53 (0001ms, 0048ms total)
T4BB0 000:049 JLINK_SetWarnOutHandler(...) (0000ms, 0048ms total)
T4BB0 000:049 JLINK_OpenEx(...)
Firmware: J-Link ARM V8 compiled Jul 17 2013 11:24:15
Hardware: V8.00
S/N: 270676280
Feature(s): RDI,FlashDL,FlashBP,JFlash,GDBFULL  returns O.K. (0020ms, 0068ms total)
T4BB0 000:069 JLINK_SetErrorOutHandler(...) (0000ms, 0068ms total)
T4BB0 000:069 JLINK_ExecCommand("ProjectFile = "F:\我的文档\学校资料\研究生\四轴飞行器\本人设计\程序\V1.0\当前工程\RVMDK\JLinkSettings.ini"", ...)  returns 0x00 (0002ms, 0070ms total)
T4BB0 000:081 JLINK_ExecCommand("Device = STM32F103CB", ...)
                JLINK_AddMirrorAreaEx(Addr = 0x00000000, Size = 0x00000000) (0000ms, 0000ms total)
              Device "STM32F103CB" selected (128 KB flash, 20 KB RAM).  returns 0x00 (0007ms, 0077ms total)
T4BB0 000:088 JLINK_ExecCommand("DisableConnectionTimeout", ...)  returns 0x01 (0000ms, 0077ms total)
T4BB0 000:088 JLINK_GetHardwareVersion()  returns 0x13880 (0000ms, 0077ms total)
T4BB0 000:088 JLINK_GetDLLVersion()  returns 47604 (0000ms, 0077ms total)
T4BB0 000:088 JLINK_GetFirmwareString(...) (0000ms, 0077ms total)
T4BB0 000:097 JLINK_GetDLLVersion()  returns 47604 (0000ms, 0077ms total)
T4BB0 000:097 JLINK_GetCompileDateTime() (0000ms, 0077ms total)
T4BB0 000:101 JLINK_GetFirmwareString(...) (0000ms, 0077ms total)
T4BB0 000:103 JLINK_GetHardwareVersion()  returns 0x13880 (0000ms, 0077ms total)
T4BB0 000:111 JLINK_TIF_Select(JLINKARM_TIF_SWD)  returns 0x00 (0003ms, 0080ms total)
T4BB0 000:114 JLINK_SetSpeed(2000) (0000ms, 0080ms total)
T4BB0 000:114 JLINK_GetId() >0x108 TIF>Found SWD-DP with ID 0x2BA01477 >0x0D TIF> >0x28 TIF> >0x0D TIF> >0x28 TIF> >0x0D TIF> >0x21 TIF> >0x0D TIF> >0x28 TIF> >0x0D TIF> >0x28 TIF> >0x0D TIF> >0x28 TIF> >0x0D TIF> >0x21 TIF> >0x0D TIF> >0x21 TIF> >0x0D TIF> >0x28 TIF> >0x0D TIF> >0x21 TIF> >0x0D TIF> >0x21 TIF> >0x108 TIF>Found SWD-DP with ID 0x2BA01477 >0x0D TIF> >0x21 TIF> >0x0D TIF> >0x28 TIF> >0x0D TIF> >0x28 TIF> >0x0D TIF> >0x21 TIF> >0x0D TIF> >0x28 TIF> >0x0D TIF> >0x21 TIF> >0x0D TIF> >0x21 TIF>
 >0x0D TIF> >0x21 TIF> >0x0D TIF> >0x21 TIF> >0x0D TIF> >0x28 TIF> >0x0D TIF> >0x28 TIF> >0x0D TIF> >0x21 TIF> >0x0D TIF> >0x28 TIF> >0x0D TIF> >0x28 TIF> >0x0D TIF> >0x28 TIF> >0x0D TIF> >0x21 TIF> >0x0D TIF> >0x21 TIF> >0x0D TIF> >0x28 TIF> >0x0D TIF> >0x21 TIF> >0x0D TIF> >0x21 TIF>Found Cortex-M4 r0p1, Little endian.Identified core does not match configuration. (Found: Cortex-M4, Configured: Cortex-M3) -- CPU_WriteMem(4 bytes @ 0xE0002000) -- CPU_ReadMem(4 bytes @ 0xE000EDF0)
 -- CPU_ReadMem(4 bytes @ 0xE0002000)FPUnit: 6 code (BP) slots and 2 literal slots -- CPU_ReadMem(4 bytes @ 0xE000EDFC) -- CPU_ReadMem(4 bytes @ 0xE0001000) -- CPU_WriteMem(4 bytes @ 0xE0001000) -- CPU_ReadMem(4 bytes @ 0xE00FF010)TPIU fitted. -- CPU_ReadMem(4 bytes @ 0xE00FF014)ETM fitted. -- CPU_ReadMem(4 bytes @ 0xE00FF018) >0x0D TIF> >0x21 TIF>  returns 0x2BA01477 (0086ms, 0166ms total)
T4BB0 000:200 JLINK_GetDeviceFamily()  returns 14 (0000ms, 0166ms total)
T4BB0 000:203 JLINK_ReadMem (0xE00FFFF0, 0x0010 Bytes, ...) -- CPU is running -- CPU_ReadMem(16 bytes @ 0xE00FFFF0) -- Data:  0D 00 00 00 10 00 00 00 05 00 00 00 B1 00 00 00  returns 0x00 (0001ms, 0167ms total)
T4BB0 000:204 JLINK_ReadMem (0xE00FFFD0, 0x0020 Bytes, ...) -- CPU is running -- CPU_ReadMem(32 bytes @ 0xE00FFFD0) -- Data:  00 00 00 00 00 00 00 00 00 00 00 00 00 00 00 00 ...  returns 0x00 (0002ms, 0169ms total)
T4BB0 000:206 JLINK_ReadMem (0xE00FF000, 0x0018 Bytes, ...) -- CPU is running -- CPU_ReadMem(24 bytes @ 0xE00FF000) -- Data:  03 F0 F0 FF 03 20 F0 FF 03 30 F0 FF 03 10 F0 FF ...  returns 0x00 (0001ms, 0170ms total)
T4BB0 000:207 JLINK_ReadMemU32(0xE000ED00, 0x0001 Items, ...) -- CPU is running -- CPU_ReadMem(4 bytes @ 0xE000ED00) -- Data:  41 C2 0F 41  returns 0x01 (0002ms, 0172ms total)
T4BB0 000:209 JLINK_ReadMemU32(0xE000EF40, 0x0001 Items, ...) -- CPU is running -- CPU_ReadMem(4 bytes @ 0xE000EF40) -- Data:  21 00 11 10  returns 0x01 (0002ms, 0174ms total)
T4BB0 000:211 JLINK_ReadMemU32(0xE000EF44, 0x0001 Items, ...) -- CPU is running -- CPU_ReadMem(4 bytes @ 0xE000EF44) -- Data:  11 00 00 11  returns 0x01 (0001ms, 0175ms total)
T4BB0 000:212 JLINK_SetResetType(JLINKARM_RESET_TYPE_NORMAL)  returns JLINKARM_RESET_TYPE_NORMAL (0001ms, 0176ms total)
T4BB0 000:213 JLINK_Reset() -- CPU is running -- CPU_WriteMem(4 bytes @ 0xE000EDF0) -- CPU is running -- CPU_WriteMem(4 bytes @ 0xE000EDFC) >0x35 TIF> -- CPU is running -- CPU_WriteMem(4 bytes @ 0xE000ED0C) -- CPU is running -- CPU_ReadMem(4 bytes @ 0xE000EDF0) -- CPU is running -- CPU_ReadMem(4 bytes @ 0xE000EDF0) -- CPU is running -- CPU_WriteMem(4 bytes @ 0xE000EDF0) -- CPU is running -- CPU_WriteMem(4 bytes @ 0xE000EDFC) -- CPU is running -- CPU_ReadMem(4 bytes @ 0xE000EDF0)
 -- CPU_WriteMem(4 bytes @ 0xE0002000) (0022ms, 0198ms total)
T4BB0 000:235 JLINK_Halt()  returns 0x00 (0000ms, 0198ms total)
T4BB0 000:235 JLINK_IsHalted()  returns TRUE (0000ms, 0198ms total)
T4BB0 000:235 JLINK_ReadMemU32(0xE000EDF0, 0x0001 Items, ...) -- CPU_ReadMem(4 bytes @ 0xE000EDF0) -- Data:  03 00 03 00  returns 0x01 (0001ms, 0199ms total)
T4BB0 000:236 JLINK_WriteU32(0xE000EDF0, 0xA05F0003) -- CPU_WriteMem(4 bytes @ 0xE000EDF0)  returns 0x00 (0002ms, 0201ms total)
T4BB0 000:238 JLINK_WriteU32(0xE000EDFC, 0x01000000) -- CPU_WriteMem(4 bytes @ 0xE000EDFC)  returns 0x00 (0001ms, 0202ms total)
T4BB0 000:245 JLINK_GetHWStatus(...)  returns 0x00 (0001ms, 0203ms total)
T4BB0 000:250 JLINK_GetNumBPUnits(Type = 0xFFFFFF00)  returns 0x06 (0000ms, 0203ms total)
T4BB0 000:250 JLINK_GetNumBPUnits(Type = 0xF0)  returns 0x2000 (0000ms, 0203ms total)
T4BB0 000:250 JLINK_GetNumWPUnits()  returns 0x04 (0000ms, 0203ms total)
T4BB0 000:254 JLINK_GetSpeed()  returns 0x7D0 (0000ms, 0203ms total)
T4BB0 000:257 JLINK_ReadMemU32(0xE000E004, 0x0001 Items, ...) -- CPU_ReadMem(4 bytes @ 0xE000E004) -- Data:  02 00 00 00  returns 0x01 (0001ms, 0204ms total)
T4BB0 000:258 JLINK_ReadMemU32(0xE000E004, 0x0001 Items, ...) -- CPU_ReadMem(4 bytes @ 0xE000E004) -- Data:  02 00 00 00  returns 0x01 (0002ms, 0206ms total)
T4BB0 000:260 JLINK_WriteMem(0xE0001000, 0x001C Bytes, ...) -- Data:  01 00 00 00 00 00 00 00 00 00 00 00 00 00 00 00 ... -- CPU_WriteMem(28 bytes @ 0xE0001000)  returns 0x1C (0001ms, 0207ms total)
T4BB0 000:261 JLINK_ReadMem (0xE0001000, 0x001C Bytes, ...) -- CPU_ReadMem(28 bytes @ 0xE0001000) -- Data:  01 00 00 40 00 00 00 00 00 00 00 00 00 00 00 00 ...  returns 0x00 (0001ms, 0208ms total)
T4BB0 000:262 JLINK_Halt()  returns 0x00 (0000ms, 0208ms total)
T4BB0 000:262 JLINK_IsHalted()  returns TRUE (0001ms, 0209ms total)
T4BB0 000:267 JLINK_WriteMem(0x20000000, 0x0164 Bytes, ...) -- Data:  00 BE 0A E0 0D 78 2D 06 68 40 08 24 40 00 00 D3 ... -- CPU_WriteMem(356 bytes @ 0x20000000)  returns 0x164 (0005ms, 0213ms total)
T4BB0 000:272 JLINK_WriteReg(R0, 0x08000000)  returns 0x00 (0000ms, 0213ms total)
T4BB0 000:272 JLINK_WriteReg(R1, 0x007A1200)  returns 0x00 (0000ms, 0213ms total)
T4BB0 000:272 JLINK_WriteReg(R2, 0x00000001)  returns 0x00 (0000ms, 0213ms total)
T4BB0 000:272 JLINK_WriteReg(R3, 0x00000000)  returns 0x00 (0000ms, 0213ms total)
T4BB0 000:272 JLINK_WriteReg(R4, 0x00000000)  returns 0x00 (0000ms, 0213ms total)
T4BB0 000:272 JLINK_WriteReg(R5, 0x00000000)  returns 0x00 (0001ms, 0214ms total)
T4BB0 000:273 JLINK_WriteReg(R6, 0x00000000)  returns 0x00 (0000ms, 0214ms total)
T4BB0 000:273 JLINK_WriteReg(R7, 0x00000000)  returns 0x00 (0000ms, 0214ms total)
T4BB0 000:273 JLINK_WriteReg(R8, 0x00000000)  returns 0x00 (0000ms, 0214ms total)
T4BB0 000:273 JLINK_WriteReg(R9, 0x20000160)  returns 0x00 (0000ms, 0214ms total)
T4BB0 000:273 JLINK_WriteReg(R10, 0x00000000)  returns 0x00 (0000ms, 0214ms total)
T4BB0 000:273 JLINK_WriteReg(R11, 0x00000000)  returns 0x00 (0000ms, 0214ms total)
T4BB0 000:273 JLINK_WriteReg(R12, 0x00000000)  returns 0x00 (0000ms, 0214ms total)
T4BB0 000:273 JLINK_WriteReg(R13 (SP), 0x20000800)  returns 0x00 (0000ms, 0214ms total)
T4BB0 000:273 JLINK_WriteReg(R14, 0x20000001)  returns 0x00 (0000ms, 0214ms total)
T4BB0 000:273 JLINK_WriteReg(R15 (PC), 0x20000038)  returns 0x00 (0000ms, 0214ms total)
T4BB0 000:273 JLINK_WriteReg(XPSR, 0x01000000)  returns 0x00 (0000ms, 0214ms total)
T4BB0 000:273 JLINK_WriteReg(MSP, 0x20000800)  returns 0x00 (0000ms, 0214ms total)
T4BB0 000:273 JLINK_WriteReg(PSP, 0x20000800)  returns 0x00 (0000ms, 0214ms total)
T4BB0 000:273 JLINK_WriteReg(CFBP, 0x00000000)  returns 0x00 (0001ms, 0215ms total)
T4BB0 000:274 JLINK_SetBPEx(Addr = 0x20000000, Type = 0xFFFFFFF2) -- CPU_ReadMem(2 bytes @ 0x20000000)  returns 0x00000001 (0001ms, 0216ms total)
T4BB0 000:275 JLINK_Go() -- CPU_WriteMem(2 bytes @ 0x20000000) -- CPU_WriteMem(4 bytes @ 0xE0002008) -- CPU_WriteMem(4 bytes @ 0xE000200C) -- CPU_WriteMem(4 bytes @ 0xE0002010) -- CPU_WriteMem(4 bytes @ 0xE0002014) -- CPU_WriteMem(4 bytes @ 0xE0002018) -- CPU_WriteMem(4 bytes @ 0xE000201C) (0010ms, 0226ms total)
T4BB0 000:285 JLINK_IsHalted() -- CPU_ReadMem(2 bytes @ 0x20000000)  returns TRUE (0006ms, 0232ms total)
T4BB0 000:291 JLINK_ReadReg(R15 (PC))  returns 0x20000000 (0000ms, 0226ms total)
T4BB0 000:291 JLINK_ClrBPEx(BPHandle = 0x00000001)  returns 0x00 (0000ms, 0226ms total)
T4BB0 000:291 JLINK_ReadReg(R0)  returns 0x00000000 (0000ms, 0226ms total)
T4BB0 000:291 JLINK_WriteReg(R0, 0x08008000)  returns 0x00 (0000ms, 0226ms total)
T4BB0 000:291 JLINK_WriteReg(R1, 0x00000400)  returns 0x00 (0000ms, 0226ms total)
T4BB0 000:291 JLINK_WriteReg(R2, 0x000000FF)  returns 0x00 (0000ms, 0226ms total)
T4BB0 000:291 JLINK_WriteReg(R3, 0x00000000)  returns 0x00 (0000ms, 0226ms total)
T4BB0 000:291 JLINK_WriteReg(R4, 0x00000000)  returns 0x00 (0000ms, 0226ms total)
T4BB0 000:292 JLINK_WriteReg(R5, 0x00000000)  returns 0x00 (0000ms, 0227ms total)
T4BB0 000:292 JLINK_WriteReg(R6, 0x00000000)  returns 0x00 (0000ms, 0227ms total)
T4BB0 000:292 JLINK_WriteReg(R7, 0x00000000)  returns 0x00 (0000ms, 0227ms total)
T4BB0 000:292 JLINK_WriteReg(R8, 0x00000000)  returns 0x00 (0000ms, 0227ms total)
T4BB0 000:292 JLINK_WriteReg(R9, 0x20000160)  returns 0x00 (0000ms, 0227ms total)
T4BB0 000:292 JLINK_WriteReg(R10, 0x00000000)  returns 0x00 (0000ms, 0227ms total)
T4BB0 000:292 JLINK_WriteReg(R11, 0x00000000)  returns 0x00 (0000ms, 0227ms total)
T4BB0 000:292 JLINK_WriteReg(R12, 0x00000000)  returns 0x00 (0000ms, 0227ms total)
T4BB0 000:292 JLINK_WriteReg(R13 (SP), 0x20000800)  returns 0x00 (0000ms, 0227ms total)
T4BB0 000:292 JLINK_WriteReg(R14, 0x20000001)  returns 0x00 (0000ms, 0227ms total)
T4BB0 000:292 JLINK_WriteReg(R15 (PC), 0x20000020)  returns 0x00 (0000ms, 0227ms total)
T4BB0 000:292 JLINK_WriteReg(XPSR, 0x01000000)  returns 0x00 (0000ms, 0227ms total)
T4BB0 000:292 JLINK_WriteReg(MSP, 0x20000800)  returns 0x00 (0000ms, 0227ms total)
T4BB0 000:292 JLINK_WriteReg(PSP, 0x20000800)  returns 0x00 (0001ms, 0228ms total)
T4BB0 000:293 JLINK_WriteReg(CFBP, 0x00000000)  returns 0x00 (0000ms, 0228ms total)
T4BB0 000:293 JLINK_SetBPEx(Addr = 0x20000000, Type = 0xFFFFFFF2)  returns 0x00000002 (0000ms, 0228ms total)
T4BB0 000:293 JLINK_Go() (0002ms, 0230ms total)
T4BB0 000:296 JLINK_IsHalted() -- CPU_ReadMem(2 bytes @ 0x20000000)  returns TRUE (0005ms, 0236ms total)
T4BB0 000:301 JLINK_ReadReg(R15 (PC))  returns 0x20000000 (0000ms, 0231ms total)
T4BB0 000:301 JLINK_ClrBPEx(BPHandle = 0x00000002)  returns 0x00 (0000ms, 0231ms total)
T4BB0 000:301 JLINK_ReadReg(R0)  returns 0x00000000 (0000ms, 0231ms total)
T4BB0 000:302 JLINK_WriteReg(R0, 0x08008400)  returns 0x00 (0000ms, 0231ms total)
T4BB0 000:302 JLINK_WriteReg(R1, 0x00000400)  returns 0x00 (0000ms, 0231ms total)
T4BB0 000:302 JLINK_WriteReg(R2, 0x000000FF)  returns 0x00 (0000ms, 0231ms total)
T4BB0 000:302 JLINK_WriteReg(R3, 0x00000000)  returns 0x00 (0001ms, 0232ms total)
T4BB0 000:303 JLINK_WriteReg(R4, 0x00000000)  returns 0x00 (0000ms, 0232ms total)
T4BB0 000:303 JLINK_WriteReg(R5, 0x00000000)  returns 0x00 (0000ms, 0232ms total)
T4BB0 000:303 JLINK_WriteReg(R6, 0x00000000)  returns 0x00 (0000ms, 0232ms total)
T4BB0 000:303 JLINK_WriteReg(R7, 0x00000000)  returns 0x00 (0000ms, 0232ms total)
T4BB0 000:303 JLINK_WriteReg(R8, 0x00000000)  returns 0x00 (0000ms, 0232ms total)
T4BB0 000:303 JLINK_WriteReg(R9, 0x20000160)  returns 0x00 (0000ms, 0232ms total)
T4BB0 000:303 JLINK_WriteReg(R10, 0x00000000)  returns 0x00 (0000ms, 0232ms total)
T4BB0 000:303 JLINK_WriteReg(R11, 0x00000000)  returns 0x00 (0000ms, 0232ms total)
T4BB0 000:303 JLINK_WriteReg(R12, 0x00000000)  returns 0x00 (0000ms, 0232ms total)
T4BB0 000:303 JLINK_WriteReg(R13 (SP), 0x20000800)  returns 0x00 (0000ms, 0232ms total)
T4BB0 000:303 JLINK_WriteReg(R14, 0x20000001)  returns 0x00 (0000ms, 0232ms total)
T4BB0 000:303 JLINK_WriteReg(R15 (PC), 0x20000020)  returns 0x00 (0000ms, 0232ms total)
T4BB0 000:303 JLINK_WriteReg(XPSR, 0x01000000)  returns 0x00 (0000ms, 0232ms total)
T4BB0 000:303 JLINK_WriteReg(MSP, 0x20000800)  returns 0x00 (0000ms, 0232ms total)
T4BB0 000:303 JLINK_WriteReg(PSP, 0x20000800)  returns 0x00 (0000ms, 0232ms total)
T4BB0 000:303 JLINK_WriteReg(CFBP, 0x00000000)  returns 0x00 (0000ms, 0232ms total)
T4BB0 000:303 JLINK_SetBPEx(Addr = 0x20000000, Type = 0xFFFFFFF2)  returns 0x00000003 (0000ms, 0232ms total)
T4BB0 000:303 JLINK_Go() (0003ms, 0235ms total)
T4BB0 000:306 JLINK_IsHalted() -- CPU_ReadMem(2 bytes @ 0x20000000)  returns TRUE (0006ms, 0241ms total)
T4BB0 000:312 JLINK_ReadReg(R15 (PC))  returns 0x20000000 (0000ms, 0235ms total)
T4BB0 000:312 JLINK_ClrBPEx(BPHandle = 0x00000003)  returns 0x00 (0000ms, 0235ms total)
T4BB0 000:312 JLINK_ReadReg(R0)  returns 0x00000000 (0000ms, 0235ms total)
T4BB0 000:313 JLINK_WriteReg(R0, 0x08008800)  returns 0x00 (0000ms, 0235ms total)
T4BB0 000:313 JLINK_WriteReg(R1, 0x00000400)  returns 0x00 (0000ms, 0235ms total)
T4BB0 000:313 JLINK_WriteReg(R2, 0x000000FF)  returns 0x00 (0000ms, 0235ms total)
T4BB0 000:313 JLINK_WriteReg(R3, 0x00000000)  returns 0x00 (0000ms, 0235ms total)
T4BB0 000:313 JLINK_WriteReg(R4, 0x00000000)  returns 0x00 (0000ms, 0235ms total)
T4BB0 000:313 JLINK_WriteReg(R5, 0x00000000)  returns 0x00 (0000ms, 0235ms total)
T4BB0 000:313 JLINK_WriteReg(R6, 0x00000000)  returns 0x00 (0000ms, 0235ms total)
T4BB0 000:313 JLINK_WriteReg(R7, 0x00000000)  returns 0x00 (0000ms, 0235ms total)
T4BB0 000:313 JLINK_WriteReg(R8, 0x00000000)  returns 0x00 (0000ms, 0235ms total)
T4BB0 000:313 JLINK_WriteReg(R9, 0x20000160)  returns 0x00 (0000ms, 0235ms total)
T4BB0 000:313 JLINK_WriteReg(R10, 0x00000000)  returns 0x00 (0000ms, 0235ms total)
T4BB0 000:313 JLINK_WriteReg(R11, 0x00000000)  returns 0x00 (0000ms, 0235ms total)
T4BB0 000:313 JLINK_WriteReg(R12, 0x00000000)  returns 0x00 (0000ms, 0235ms total)
T4BB0 000:313 JLINK_WriteReg(R13 (SP), 0x20000800)  returns 0x00 (0000ms, 0235ms total)
T4BB0 000:313 JLINK_WriteReg(R14, 0x20000001)  returns 0x00 (0000ms, 0235ms total)
T4BB0 000:313 JLINK_WriteReg(R15 (PC), 0x20000020)  returns 0x00 (0000ms, 0235ms total)
T4BB0 000:313 JLINK_WriteReg(XPSR, 0x01000000)  returns 0x00 (0000ms, 0235ms total)
T4BB0 000:313 JLINK_WriteReg(MSP, 0x20000800)  returns 0x00 (0001ms, 0236ms total)
T4BB0 000:314 JLINK_WriteReg(PSP, 0x20000800)  returns 0x00 (0000ms, 0236ms total)
T4BB0 000:314 JLINK_WriteReg(CFBP, 0x00000000)  returns 0x00 (0000ms, 0236ms total)
T4BB0 000:314 JLINK_SetBPEx(Addr = 0x20000000, Type = 0xFFFFFFF2)  returns 0x00000004 (0000ms, 0236ms total)
T4BB0 000:314 JLINK_Go() (0002ms, 0238ms total)
T4BB0 000:317 JLINK_IsHalted() -- CPU_ReadMem(2 bytes @ 0x20000000)  returns TRUE (0005ms, 0244ms total)
T4BB0 000:322 JLINK_ReadReg(R15 (PC))  returns 0x20000000 (0000ms, 0239ms total)
T4BB0 000:322 JLINK_ClrBPEx(BPHandle = 0x00000004)  returns 0x00 (0000ms, 0239ms total)
T4BB0 000:322 JLINK_ReadReg(R0)  returns 0x00000000 (0000ms, 0239ms total)
T4BB0 000:323 JLINK_WriteReg(R0, 0x08008C00)  returns 0x00 (0000ms, 0239ms total)
T4BB0 000:323 JLINK_WriteReg(R1, 0x00000400)  returns 0x00 (0000ms, 0239ms total)
T4BB0 000:323 JLINK_WriteReg(R2, 0x000000FF)  returns 0x00 (0000ms, 0239ms total)
T4BB0 000:324 JLINK_WriteReg(R3, 0x00000000)  returns 0x00 (0000ms, 0240ms total)
T4BB0 000:324 JLINK_WriteReg(R4, 0x00000000)  returns 0x00 (0000ms, 0240ms total)
T4BB0 000:324 JLINK_WriteReg(R5, 0x00000000)  returns 0x00 (0000ms, 0240ms total)
T4BB0 000:324 JLINK_WriteReg(R6, 0x00000000)  returns 0x00 (0000ms, 0240ms total)
T4BB0 000:324 JLINK_WriteReg(R7, 0x00000000)  returns 0x00 (0000ms, 0240ms total)
T4BB0 000:324 JLINK_WriteReg(R8, 0x00000000)  returns 0x00 (0000ms, 0240ms total)
T4BB0 000:324 JLINK_WriteReg(R9, 0x20000160)  returns 0x00 (0000ms, 0240ms total)
T4BB0 000:324 JLINK_WriteReg(R10, 0x00000000)  returns 0x00 (0000ms, 0240ms total)
T4BB0 000:324 JLINK_WriteReg(R11, 0x00000000)  returns 0x00 (0000ms, 0240ms total)
T4BB0 000:324 JLINK_WriteReg(R12, 0x00000000)  returns 0x00 (0000ms, 0240ms total)
T4BB0 000:324 JLINK_WriteReg(R13 (SP), 0x20000800)  returns 0x00 (0000ms, 0240ms total)
T4BB0 000:324 JLINK_WriteReg(R14, 0x20000001)  returns 0x00 (0000ms, 0240ms total)
T4BB0 000:324 JLINK_WriteReg(R15 (PC), 0x20000020)  returns 0x00 (0000ms, 0240ms total)
T4BB0 000:324 JLINK_WriteReg(XPSR, 0x01000000)  returns 0x00 (0000ms, 0240ms total)
T4BB0 000:324 JLINK_WriteReg(MSP, 0x20000800)  returns 0x00 (0000ms, 0240ms total)
T4BB0 000:324 JLINK_WriteReg(PSP, 0x20000800)  returns 0x00 (0000ms, 0240ms total)
T4BB0 000:324 JLINK_WriteReg(CFBP, 0x00000000)  returns 0x00 (0000ms, 0240ms total)
T4BB0 000:324 JLINK_SetBPEx(Addr = 0x20000000, Type = 0xFFFFFFF2)  returns 0x00000005 (0000ms, 0240ms total)
T4BB0 000:324 JLINK_Go() (0003ms, 0243ms total)
T4BB0 000:327 JLINK_IsHalted() -- CPU_ReadMem(2 bytes @ 0x20000000)  returns TRUE (0006ms, 0249ms total)
T4BB0 000:333 JLINK_ReadReg(R15 (PC))  returns 0x20000000 (0000ms, 0243ms total)
T4BB0 000:333 JLINK_ClrBPEx(BPHandle = 0x00000005)  returns 0x00 (0000ms, 0243ms total)
T4BB0 000:333 JLINK_ReadReg(R0)  returns 0x00000000 (0000ms, 0243ms total)
T4BB0 000:334 JLINK_WriteReg(R0, 0x08009000)  returns 0x00 (0000ms, 0243ms total)
T4BB0 000:334 JLINK_WriteReg(R1, 0x00000400)  returns 0x00 (0000ms, 0243ms total)
T4BB0 000:334 JLINK_WriteReg(R2, 0x000000FF)  returns 0x00 (0000ms, 0243ms total)
T4BB0 000:334 JLINK_WriteReg(R3, 0x00000000)  returns 0x00 (0000ms, 0243ms total)
T4BB0 000:334 JLINK_WriteReg(R4, 0x00000000)  returns 0x00 (0000ms, 0243ms total)
T4BB0 000:334 JLINK_WriteReg(R5, 0x00000000)  returns 0x00 (0000ms, 0243ms total)
T4BB0 000:334 JLINK_WriteReg(R6, 0x00000000)  returns 0x00 (0000ms, 0243ms total)
T4BB0 000:334 JLINK_WriteReg(R7, 0x00000000)  returns 0x00 (0000ms, 0243ms total)
T4BB0 000:335 JLINK_WriteReg(R8, 0x00000000)  returns 0x00 (0000ms, 0244ms total)
T4BB0 000:335 JLINK_WriteReg(R9, 0x20000160)  returns 0x00 (0000ms, 0244ms total)
T4BB0 000:335 JLINK_WriteReg(R10, 0x00000000)  returns 0x00 (0000ms, 0244ms total)
T4BB0 000:335 JLINK_WriteReg(R11, 0x00000000)  returns 0x00 (0000ms, 0244ms total)
T4BB0 000:335 JLINK_WriteReg(R12, 0x00000000)  returns 0x00 (0000ms, 0244ms total)
T4BB0 000:335 JLINK_WriteReg(R13 (SP), 0x20000800)  returns 0x00 (0000ms, 0244ms total)
T4BB0 000:335 JLINK_WriteReg(R14, 0x20000001)  returns 0x00 (0000ms, 0244ms total)
T4BB0 000:335 JLINK_WriteReg(R15 (PC), 0x20000020)  returns 0x00 (0000ms, 0244ms total)
T4BB0 000:335 JLINK_WriteReg(XPSR, 0x01000000)  returns 0x00 (0000ms, 0244ms total)
T4BB0 000:335 JLINK_WriteReg(MSP, 0x20000800)  returns 0x00 (0000ms, 0244ms total)
T4BB0 000:335 JLINK_WriteReg(PSP, 0x20000800)  returns 0x00 (0000ms, 0244ms total)
T4BB0 000:335 JLINK_WriteReg(CFBP, 0x00000000)  returns 0x00 (0000ms, 0244ms total)
T4BB0 000:335 JLINK_SetBPEx(Addr = 0x20000000, Type = 0xFFFFFFF2)  returns 0x00000006 (0000ms, 0244ms total)
T4BB0 000:335 JLINK_Go() (0003ms, 0247ms total)
T4BB0 000:338 JLINK_IsHalted() -- CPU_ReadMem(2 bytes @ 0x20000000)  returns TRUE (0006ms, 0253ms total)
T4BB0 000:344 JLINK_ReadReg(R15 (PC))  returns 0x20000000 (0000ms, 0247ms total)
T4BB0 000:344 JLINK_ClrBPEx(BPHandle = 0x00000006)  returns 0x00 (0000ms, 0247ms total)
T4BB0 000:344 JLINK_ReadReg(R0)  returns 0x00000000 (0000ms, 0247ms total)
T4BB0 000:345 JLINK_WriteReg(R0, 0x08009400)  returns 0x00 (0000ms, 0247ms total)
T4BB0 000:345 JLINK_WriteReg(R1, 0x00000400)  returns 0x00 (0000ms, 0247ms total)
T4BB0 000:345 JLINK_WriteReg(R2, 0x000000FF)  returns 0x00 (0000ms, 0247ms total)
T4BB0 000:345 JLINK_WriteReg(R3, 0x00000000)  returns 0x00 (0000ms, 0247ms total)
T4BB0 000:345 JLINK_WriteReg(R4, 0x00000000)  returns 0x00 (0000ms, 0247ms total)
T4BB0 000:345 JLINK_WriteReg(R5, 0x00000000)  returns 0x00 (0000ms, 0247ms total)
T4BB0 000:345 JLINK_WriteReg(R6, 0x00000000)  returns 0x00 (0000ms, 0247ms total)
T4BB0 000:345 JLINK_WriteReg(R7, 0x00000000)  returns 0x00 (0000ms, 0247ms total)
T4BB0 000:345 JLINK_WriteReg(R8, 0x00000000)  returns 0x00 (0000ms, 0247ms total)
T4BB0 000:345 JLINK_WriteReg(R9, 0x20000160)  returns 0x00 (0000ms, 0247ms total)
T4BB0 000:345 JLINK_WriteReg(R10, 0x00000000)  returns 0x00 (0000ms, 0247ms total)
T4BB0 000:345 JLINK_WriteReg(R11, 0x00000000)  returns 0x00 (0000ms, 0247ms total)
T4BB0 000:345 JLINK_WriteReg(R12, 0x00000000)  returns 0x00 (0000ms, 0247ms total)
T4BB0 000:345 JLINK_WriteReg(R13 (SP), 0x20000800)  returns 0x00 (0000ms, 0247ms total)
T4BB0 000:345 JLINK_WriteReg(R14, 0x20000001)  returns 0x00 (0000ms, 0247ms total)
T4BB0 000:345 JLINK_WriteReg(R15 (PC), 0x20000020)  returns 0x00 (0000ms, 0247ms total)
T4BB0 000:345 JLINK_WriteReg(XPSR, 0x01000000)  returns 0x00 (0000ms, 0247ms total)
T4BB0 000:345 JLINK_WriteReg(MSP, 0x20000800)  returns 0x00 (0001ms, 0248ms total)
T4BB0 000:346 JLINK_WriteReg(PSP, 0x20000800)  returns 0x00 (0000ms, 0248ms total)
T4BB0 000:346 JLINK_WriteReg(CFBP, 0x00000000)  returns 0x00 (0000ms, 0248ms total)
T4BB0 000:346 JLINK_SetBPEx(Addr = 0x20000000, Type = 0xFFFFFFF2)  returns 0x00000007 (0000ms, 0248ms total)
T4BB0 000:346 JLINK_Go() (0002ms, 0250ms total)
T4BB0 000:348 JLINK_IsHalted() -- CPU_ReadMem(2 bytes @ 0x20000000)  returns TRUE (0006ms, 0256ms total)
T4BB0 000:354 JLINK_ReadReg(R15 (PC))  returns 0x20000000 (0000ms, 0250ms total)
T4BB0 000:354 JLINK_ClrBPEx(BPHandle = 0x00000007)  returns 0x00 (0000ms, 0250ms total)
T4BB0 000:354 JLINK_ReadReg(R0)  returns 0x00000000 (0000ms, 0250ms total)
T4BB0 000:355 JLINK_WriteReg(R0, 0x08009800)  returns 0x00 (0000ms, 0250ms total)
T4BB0 000:355 JLINK_WriteReg(R1, 0x00000400)  returns 0x00 (0000ms, 0250ms total)
T4BB0 000:355 JLINK_WriteReg(R2, 0x000000FF)  returns 0x00 (0000ms, 0250ms total)
T4BB0 000:355 JLINK_WriteReg(R3, 0x00000000)  returns 0x00 (0000ms, 0250ms total)
T4BB0 000:355 JLINK_WriteReg(R4, 0x00000000)  returns 0x00 (0000ms, 0250ms total)
T4BB0 000:355 JLINK_WriteReg(R5, 0x00000000)  returns 0x00 (0000ms, 0250ms total)
T4BB0 000:355 JLINK_WriteReg(R6, 0x00000000)  returns 0x00 (0000ms, 0250ms total)
T4BB0 000:355 JLINK_WriteReg(R7, 0x00000000)  returns 0x00 (0000ms, 0250ms total)
T4BB0 000:355 JLINK_WriteReg(R8, 0x00000000)  returns 0x00 (0000ms, 0250ms total)
T4BB0 000:355 JLINK_WriteReg(R9, 0x20000160)  returns 0x00 (0000ms, 0250ms total)
T4BB0 000:355 JLINK_WriteReg(R10, 0x00000000)  returns 0x00 (0000ms, 0250ms total)
T4BB0 000:355 JLINK_WriteReg(R11, 0x00000000)  returns 0x00 (0000ms, 0250ms total)
T4BB0 000:355 JLINK_WriteReg(R12, 0x00000000)  returns 0x00 (0001ms, 0251ms total)
T4BB0 000:356 JLINK_WriteReg(R13 (SP), 0x20000800)  returns 0x00 (0000ms, 0251ms total)
T4BB0 000:356 JLINK_WriteReg(R14, 0x20000001)  returns 0x00 (0000ms, 0251ms total)
T4BB0 000:356 JLINK_WriteReg(R15 (PC), 0x20000020)  returns 0x00 (0000ms, 0251ms total)
T4BB0 000:356 JLINK_WriteReg(XPSR, 0x01000000)  returns 0x00 (0000ms, 0251ms total)
T4BB0 000:356 JLINK_WriteReg(MSP, 0x20000800)  returns 0x00 (0000ms, 0251ms total)
T4BB0 000:356 JLINK_WriteReg(PSP, 0x20000800)  returns 0x00 (0000ms, 0251ms total)
T4BB0 000:356 JLINK_WriteReg(CFBP, 0x00000000)  returns 0x00 (0000ms, 0251ms total)
T4BB0 000:356 JLINK_SetBPEx(Addr = 0x20000000, Type = 0xFFFFFFF2)  returns 0x00000008 (0000ms, 0251ms total)
T4BB0 000:356 JLINK_Go() (0003ms, 0254ms total)
T4BB0 000:359 JLINK_IsHalted() -- CPU_ReadMem(2 bytes @ 0x20000000)  returns TRUE (0005ms, 0259ms total)
T4BB0 000:364 JLINK_ReadReg(R15 (PC))  returns 0x20000000 (0000ms, 0254ms total)
T4BB0 000:364 JLINK_ClrBPEx(BPHandle = 0x00000008)  returns 0x00 (0000ms, 0254ms total)
T4BB0 000:364 JLINK_ReadReg(R0)  returns 0x00000000 (0000ms, 0254ms total)
T4BB0 000:365 JLINK_WriteReg(R0, 0x08009C00)  returns 0x00 (0000ms, 0254ms total)
T4BB0 000:365 JLINK_WriteReg(R1, 0x00000400)  returns 0x00 (0000ms, 0254ms total)
T4BB0 000:365 JLINK_WriteReg(R2, 0x000000FF)  returns 0x00 (0000ms, 0254ms total)
T4BB0 000:365 JLINK_WriteReg(R3, 0x00000000)  returns 0x00 (0000ms, 0254ms total)
T4BB0 000:365 JLINK_WriteReg(R4, 0x00000000)  returns 0x00 (0000ms, 0254ms total)
T4BB0 000:365 JLINK_WriteReg(R5, 0x00000000)  returns 0x00 (0001ms, 0255ms total)
T4BB0 000:366 JLINK_WriteReg(R6, 0x00000000)  returns 0x00 (0000ms, 0255ms total)
T4BB0 000:366 JLINK_WriteReg(R7, 0x00000000)  returns 0x00 (0000ms, 0255ms total)
T4BB0 000:366 JLINK_WriteReg(R8, 0x00000000)  returns 0x00 (0000ms, 0255ms total)
T4BB0 000:366 JLINK_WriteReg(R9, 0x20000160)  returns 0x00 (0000ms, 0255ms total)
T4BB0 000:366 JLINK_WriteReg(R10, 0x00000000)  returns 0x00 (0000ms, 0255ms total)
T4BB0 000:366 JLINK_WriteReg(R11, 0x00000000)  returns 0x00 (0000ms, 0255ms total)
T4BB0 000:366 JLINK_WriteReg(R12, 0x00000000)  returns 0x00 (0000ms, 0255ms total)
T4BB0 000:366 JLINK_WriteReg(R13 (SP), 0x20000800)  returns 0x00 (0000ms, 0255ms total)
T4BB0 000:366 JLINK_WriteReg(R14, 0x20000001)  returns 0x00 (0000ms, 0255ms total)
T4BB0 000:366 JLINK_WriteReg(R15 (PC), 0x20000020)  returns 0x00 (0000ms, 0255ms total)
T4BB0 000:366 JLINK_WriteReg(XPSR, 0x01000000)  returns 0x00 (0000ms, 0255ms total)
T4BB0 000:366 JLINK_WriteReg(MSP, 0x20000800)  returns 0x00 (0000ms, 0255ms total)
T4BB0 000:366 JLINK_WriteReg(PSP, 0x20000800)  returns 0x00 (0000ms, 0255ms total)
T4BB0 000:366 JLINK_WriteReg(CFBP, 0x00000000)  returns 0x00 (0000ms, 0255ms total)
T4BB0 000:366 JLINK_SetBPEx(Addr = 0x20000000, Type = 0xFFFFFFF2)  returns 0x00000009 (0000ms, 0255ms total)
T4BB0 000:366 JLINK_Go() (0003ms, 0258ms total)
T4BB0 000:369 JLINK_IsHalted() -- CPU_ReadMem(2 bytes @ 0x20000000)  returns TRUE (0006ms, 0264ms total)
T4BB0 000:375 JLINK_ReadReg(R15 (PC))  returns 0x20000000 (0000ms, 0258ms total)
T4BB0 000:375 JLINK_ClrBPEx(BPHandle = 0x00000009)  returns 0x00 (0000ms, 0258ms total)
T4BB0 000:375 JLINK_ReadReg(R0)  returns 0x00000000 (0000ms, 0258ms total)
T4BB0 000:376 JLINK_WriteReg(R0, 0x0800A000)  returns 0x00 (0000ms, 0258ms total)
T4BB0 000:376 JLINK_WriteReg(R1, 0x00000400)  returns 0x00 (0000ms, 0258ms total)
T4BB0 000:376 JLINK_WriteReg(R2, 0x000000FF)  returns 0x00 (0000ms, 0258ms total)
T4BB0 000:376 JLINK_WriteReg(R3, 0x00000000)  returns 0x00 (0000ms, 0258ms total)
T4BB0 000:376 JLINK_WriteReg(R4, 0x00000000)  returns 0x00 (0000ms, 0258ms total)
T4BB0 000:376 JLINK_WriteReg(R5, 0x00000000)  returns 0x00 (0000ms, 0258ms total)
T4BB0 000:376 JLINK_WriteReg(R6, 0x00000000)  returns 0x00 (0000ms, 0258ms total)
T4BB0 000:376 JLINK_WriteReg(R7, 0x00000000)  returns 0x00 (0000ms, 0258ms total)
T4BB0 000:376 JLINK_WriteReg(R8, 0x00000000)  returns 0x00 (0000ms, 0258ms total)
T4BB0 000:376 JLINK_WriteReg(R9, 0x20000160)  returns 0x00 (0000ms, 0258ms total)
T4BB0 000:376 JLINK_WriteReg(R10, 0x00000000)  returns 0x00 (0000ms, 0258ms total)
T4BB0 000:376 JLINK_WriteReg(R11, 0x00000000)  returns 0x00 (0000ms, 0258ms total)
T4BB0 000:376 JLINK_WriteReg(R12, 0x00000000)  returns 0x00 (0001ms, 0259ms total)
T4BB0 000:377 JLINK_WriteReg(R13 (SP), 0x20000800)  returns 0x00 (0000ms, 0259ms total)
T4BB0 000:377 JLINK_WriteReg(R14, 0x20000001)  returns 0x00 (0000ms, 0259ms total)
T4BB0 000:377 JLINK_WriteReg(R15 (PC), 0x20000020)  returns 0x00 (0000ms, 0259ms total)
T4BB0 000:377 JLINK_WriteReg(XPSR, 0x01000000)  returns 0x00 (0000ms, 0259ms total)
T4BB0 000:377 JLINK_WriteReg(MSP, 0x20000800)  returns 0x00 (0000ms, 0259ms total)
T4BB0 000:377 JLINK_WriteReg(PSP, 0x20000800)  returns 0x00 (0000ms, 0259ms total)
T4BB0 000:377 JLINK_WriteReg(CFBP, 0x00000000)  returns 0x00 (0000ms, 0259ms total)
T4BB0 000:377 JLINK_SetBPEx(Addr = 0x20000000, Type = 0xFFFFFFF2)  returns 0x0000000A (0000ms, 0259ms total)
T4BB0 000:377 JLINK_Go() (0003ms, 0262ms total)
T4BB0 000:380 JLINK_IsHalted() -- CPU_ReadMem(2 bytes @ 0x20000000)  returns TRUE (0006ms, 0268ms total)
T4BB0 000:386 JLINK_ReadReg(R15 (PC))  returns 0x20000000 (0000ms, 0262ms total)
T4BB0 000:386 JLINK_ClrBPEx(BPHandle = 0x0000000A)  returns 0x00 (0000ms, 0262ms total)
T4BB0 000:386 JLINK_ReadReg(R0)  returns 0x00000000 (0000ms, 0262ms total)
T4BB0 000:387 JLINK_WriteReg(R0, 0x0800A400)  returns 0x00 (0000ms, 0262ms total)
T4BB0 000:387 JLINK_WriteReg(R1, 0x00000400)  returns 0x00 (0000ms, 0262ms total)
T4BB0 000:387 JLINK_WriteReg(R2, 0x000000FF)  returns 0x00 (0000ms, 0262ms total)
T4BB0 000:387 JLINK_WriteReg(R3, 0x00000000)  returns 0x00 (0000ms, 0262ms total)
T4BB0 000:387 JLINK_WriteReg(R4, 0x00000000)  returns 0x00 (0000ms, 0262ms total)
T4BB0 000:387 JLINK_WriteReg(R5, 0x00000000)  returns 0x00 (0000ms, 0262ms total)
T4BB0 000:387 JLINK_WriteReg(R6, 0x00000000)  returns 0x00 (0000ms, 0262ms total)
T4BB0 000:387 JLINK_WriteReg(R7, 0x00000000)  returns 0x00 (0000ms, 0262ms total)
T4BB0 000:387 JLINK_WriteReg(R8, 0x00000000)  returns 0x00 (0000ms, 0262ms total)
T4BB0 000:387 JLINK_WriteReg(R9, 0x20000160)  returns 0x00 (0000ms, 0262ms total)
T4BB0 000:387 JLINK_WriteReg(R10, 0x00000000)  returns 0x00 (0000ms, 0262ms total)
T4BB0 000:387 JLINK_WriteReg(R11, 0x00000000)  returns 0x00 (0000ms, 0262ms total)
T4BB0 000:387 JLINK_WriteReg(R12, 0x00000000)  returns 0x00 (0000ms, 0262ms total)
T4BB0 000:387 JLINK_WriteReg(R13 (SP), 0x20000800)  returns 0x00 (0000ms, 0262ms total)
T4BB0 000:387 JLINK_WriteReg(R14, 0x20000001)  returns 0x00 (0000ms, 0262ms total)
T4BB0 000:387 JLINK_WriteReg(R15 (PC), 0x20000020)  returns 0x00 (0000ms, 0262ms total)
T4BB0 000:387 JLINK_WriteReg(XPSR, 0x01000000)  returns 0x00 (0000ms, 0262ms total)
T4BB0 000:387 JLINK_WriteReg(MSP, 0x20000800)  returns 0x00 (0000ms, 0262ms total)
T4BB0 000:387 JLINK_WriteReg(PSP, 0x20000800)  returns 0x00 (0000ms, 0262ms total)
T4BB0 000:387 JLINK_WriteReg(CFBP, 0x00000000)  returns 0x00 (0000ms, 0262ms total)
T4BB0 000:387 JLINK_SetBPEx(Addr = 0x20000000, Type = 0xFFFFFFF2)  returns 0x0000000B (0001ms, 0263ms total)
T4BB0 000:388 JLINK_Go() (0002ms, 0265ms total)
T4BB0 000:390 JLINK_IsHalted() -- CPU_ReadMem(2 bytes @ 0x20000000)  returns TRUE (0006ms, 0271ms total)
T4BB0 000:396 JLINK_ReadReg(R15 (PC))  returns 0x20000000 (0000ms, 0265ms total)
T4BB0 000:396 JLINK_ClrBPEx(BPHandle = 0x0000000B)  returns 0x00 (0000ms, 0265ms total)
T4BB0 000:396 JLINK_ReadReg(R0)  returns 0x00000000 (0001ms, 0266ms total)
T4BB0 000:397 JLINK_WriteReg(R0, 0x0800A800)  returns 0x00 (0000ms, 0266ms total)
T4BB0 000:397 JLINK_WriteReg(R1, 0x00000400)  returns 0x00 (0000ms, 0266ms total)
T4BB0 000:397 JLINK_WriteReg(R2, 0x000000FF)  returns 0x00 (0000ms, 0266ms total)
T4BB0 000:397 JLINK_WriteReg(R3, 0x00000000)  returns 0x00 (0000ms, 0266ms total)
T4BB0 000:397 JLINK_WriteReg(R4, 0x00000000)  returns 0x00 (0000ms, 0266ms total)
T4BB0 000:397 JLINK_WriteReg(R5, 0x00000000)  returns 0x00 (0000ms, 0266ms total)
T4BB0 000:397 JLINK_WriteReg(R6, 0x00000000)  returns 0x00 (0001ms, 0267ms total)
T4BB0 000:398 JLINK_WriteReg(R7, 0x00000000)  returns 0x00 (0000ms, 0267ms total)
T4BB0 000:398 JLINK_WriteReg(R8, 0x00000000)  returns 0x00 (0000ms, 0267ms total)
T4BB0 000:398 JLINK_WriteReg(R9, 0x20000160)  returns 0x00 (0000ms, 0267ms total)
T4BB0 000:398 JLINK_WriteReg(R10, 0x00000000)  returns 0x00 (0000ms, 0267ms total)
T4BB0 000:398 JLINK_WriteReg(R11, 0x00000000)  returns 0x00 (0000ms, 0267ms total)
T4BB0 000:398 JLINK_WriteReg(R12, 0x00000000)  returns 0x00 (0000ms, 0267ms total)
T4BB0 000:398 JLINK_WriteReg(R13 (SP), 0x20000800)  returns 0x00 (0000ms, 0267ms total)
T4BB0 000:398 JLINK_WriteReg(R14, 0x20000001)  returns 0x00 (0000ms, 0267ms total)
T4BB0 000:398 JLINK_WriteReg(R15 (PC), 0x20000020)  returns 0x00 (0000ms, 0267ms total)
T4BB0 000:398 JLINK_WriteReg(XPSR, 0x01000000)  returns 0x00 (0000ms, 0267ms total)
T4BB0 000:398 JLINK_WriteReg(MSP, 0x20000800)  returns 0x00 (0000ms, 0267ms total)
T4BB0 000:398 JLINK_WriteReg(PSP, 0x20000800)  returns 0x00 (0000ms, 0267ms total)
T4BB0 000:398 JLINK_WriteReg(CFBP, 0x00000000)  returns 0x00 (0000ms, 0267ms total)
T4BB0 000:398 JLINK_SetBPEx(Addr = 0x20000000, Type = 0xFFFFFFF2)  returns 0x0000000C (0000ms, 0267ms total)
T4BB0 000:398 JLINK_Go() (0003ms, 0270ms total)
T4BB0 000:401 JLINK_IsHalted() -- CPU_ReadMem(2 bytes @ 0x20000000)  returns TRUE (0006ms, 0276ms total)
T4BB0 000:407 JLINK_ReadReg(R15 (PC))  returns 0x20000000 (0000ms, 0270ms total)
T4BB0 000:407 JLINK_ClrBPEx(BPHandle = 0x0000000C)  returns 0x00 (0000ms, 0270ms total)
T4BB0 000:407 JLINK_ReadReg(R0)  returns 0x00000000 (0000ms, 0270ms total)
T4BB0 000:408 JLINK_WriteReg(R0, 0x0800AC00)  returns 0x00 (0000ms, 0270ms total)
T4BB0 000:408 JLINK_WriteReg(R1, 0x00000400)  returns 0x00 (0000ms, 0270ms total)
T4BB0 000:408 JLINK_WriteReg(R2, 0x000000FF)  returns 0x00 (0000ms, 0270ms total)
T4BB0 000:408 JLINK_WriteReg(R3, 0x00000000)  returns 0x00 (0000ms, 0270ms total)
T4BB0 000:408 JLINK_WriteReg(R4, 0x00000000)  returns 0x00 (0000ms, 0270ms total)
T4BB0 000:408 JLINK_WriteReg(R5, 0x00000000)  returns 0x00 (0000ms, 0270ms total)
T4BB0 000:408 JLINK_WriteReg(R6, 0x00000000)  returns 0x00 (0000ms, 0270ms total)
T4BB0 000:408 JLINK_WriteReg(R7, 0x00000000)  returns 0x00 (0000ms, 0270ms total)
T4BB0 000:408 JLINK_WriteReg(R8, 0x00000000)  returns 0x00 (0000ms, 0270ms total)
T4BB0 000:408 JLINK_WriteReg(R9, 0x20000160)  returns 0x00 (0000ms, 0270ms total)
T4BB0 000:408 JLINK_WriteReg(R10, 0x00000000)  returns 0x00 (0000ms, 0270ms total)
T4BB0 000:408 JLINK_WriteReg(R11, 0x00000000)  returns 0x00 (0001ms, 0271ms total)
T4BB0 000:409 JLINK_WriteReg(R12, 0x00000000)  returns 0x00 (0000ms, 0271ms total)
T4BB0 000:409 JLINK_WriteReg(R13 (SP), 0x20000800)  returns 0x00 (0000ms, 0271ms total)
T4BB0 000:409 JLINK_WriteReg(R14, 0x20000001)  returns 0x00 (0000ms, 0271ms total)
T4BB0 000:409 JLINK_WriteReg(R15 (PC), 0x20000020)  returns 0x00 (0000ms, 0271ms total)
T4BB0 000:409 JLINK_WriteReg(XPSR, 0x01000000)  returns 0x00 (0000ms, 0271ms total)
T4BB0 000:409 JLINK_WriteReg(MSP, 0x20000800)  returns 0x00 (0000ms, 0271ms total)
T4BB0 000:409 JLINK_WriteReg(PSP, 0x20000800)  returns 0x00 (0000ms, 0271ms total)
T4BB0 000:409 JLINK_WriteReg(CFBP, 0x00000000)  returns 0x00 (0000ms, 0271ms total)
T4BB0 000:409 JLINK_SetBPEx(Addr = 0x20000000, Type = 0xFFFFFFF2)  returns 0x0000000D (0000ms, 0271ms total)
T4BB0 000:409 JLINK_Go() (0003ms, 0274ms total)
T4BB0 000:412 JLINK_IsHalted() -- CPU_ReadMem(2 bytes @ 0x20000000)  returns TRUE (0006ms, 0280ms total)
T4BB0 000:418 JLINK_ReadReg(R15 (PC))  returns 0x20000000 (0000ms, 0274ms total)
T4BB0 000:418 JLINK_ClrBPEx(BPHandle = 0x0000000D)  returns 0x00 (0000ms, 0274ms total)
T4BB0 000:418 JLINK_ReadReg(R0)  returns 0x00000000 (0000ms, 0274ms total)
T4BB0 000:419 JLINK_WriteReg(R0, 0x0800B000)  returns 0x00 (0000ms, 0275ms total)
T4BB0 000:419 JLINK_WriteReg(R1, 0x00000400)  returns 0x00 (0000ms, 0275ms total)
T4BB0 000:419 JLINK_WriteReg(R2, 0x000000FF)  returns 0x00 (0000ms, 0275ms total)
T4BB0 000:419 JLINK_WriteReg(R3, 0x00000000)  returns 0x00 (0000ms, 0275ms total)
T4BB0 000:419 JLINK_WriteReg(R4, 0x00000000)  returns 0x00 (0000ms, 0275ms total)
T4BB0 000:419 JLINK_WriteReg(R5, 0x00000000)  returns 0x00 (0000ms, 0275ms total)
T4BB0 000:419 JLINK_WriteReg(R6, 0x00000000)  returns 0x00 (0000ms, 0275ms total)
T4BB0 000:419 JLINK_WriteReg(R7, 0x00000000)  returns 0x00 (0001ms, 0276ms total)
T4BB0 000:420 JLINK_WriteReg(R8, 0x00000000)  returns 0x00 (0000ms, 0276ms total)
T4BB0 000:420 JLINK_WriteReg(R9, 0x20000160)  returns 0x00 (0000ms, 0276ms total)
T4BB0 000:420 JLINK_WriteReg(R10, 0x00000000)  returns 0x00 (0000ms, 0276ms total)
T4BB0 000:420 JLINK_WriteReg(R11, 0x00000000)  returns 0x00 (0000ms, 0276ms total)
T4BB0 000:420 JLINK_WriteReg(R12, 0x00000000)  returns 0x00 (0000ms, 0276ms total)
T4BB0 000:420 JLINK_WriteReg(R13 (SP), 0x20000800)  returns 0x00 (0000ms, 0276ms total)
T4BB0 000:420 JLINK_WriteReg(R14, 0x20000001)  returns 0x00 (0000ms, 0276ms total)
T4BB0 000:420 JLINK_WriteReg(R15 (PC), 0x20000020)  returns 0x00 (0000ms, 0276ms total)
T4BB0 000:420 JLINK_WriteReg(XPSR, 0x01000000)  returns 0x00 (0000ms, 0276ms total)
T4BB0 000:420 JLINK_WriteReg(MSP, 0x20000800)  returns 0x00 (0000ms, 0276ms total)
T4BB0 000:420 JLINK_WriteReg(PSP, 0x20000800)  returns 0x00 (0000ms, 0276ms total)
T4BB0 000:420 JLINK_WriteReg(CFBP, 0x00000000)  returns 0x00 (0000ms, 0276ms total)
T4BB0 000:420 JLINK_SetBPEx(Addr = 0x20000000, Type = 0xFFFFFFF2)  returns 0x0000000E (0000ms, 0276ms total)
T4BB0 000:420 JLINK_Go() (0003ms, 0279ms total)
T4BB0 000:423 JLINK_IsHalted() -- CPU_ReadMem(2 bytes @ 0x20000000)  returns TRUE (0009ms, 0288ms total)
T4BB0 000:432 JLINK_ReadReg(R15 (PC))  returns 0x20000000 (0000ms, 0279ms total)
T4BB0 000:432 JLINK_ClrBPEx(BPHandle = 0x0000000E)  returns 0x00 (0000ms, 0279ms total)
T4BB0 000:432 JLINK_ReadReg(R0)  returns 0x00000000 (0000ms, 0279ms total)
T4BB0 000:433 JLINK_WriteReg(R0, 0x0800B400)  returns 0x00 (0000ms, 0279ms total)
T4BB0 000:433 JLINK_WriteReg(R1, 0x00000400)  returns 0x00 (0000ms, 0279ms total)
T4BB0 000:433 JLINK_WriteReg(R2, 0x000000FF)  returns 0x00 (0000ms, 0279ms total)
T4BB0 000:433 JLINK_WriteReg(R3, 0x00000000)  returns 0x00 (0000ms, 0279ms total)
T4BB0 000:433 JLINK_WriteReg(R4, 0x00000000)  returns 0x00 (0000ms, 0279ms total)
T4BB0 000:433 JLINK_WriteReg(R5, 0x00000000)  returns 0x00 (0000ms, 0279ms total)
T4BB0 000:433 JLINK_WriteReg(R6, 0x00000000)  returns 0x00 (0000ms, 0279ms total)
T4BB0 000:433 JLINK_WriteReg(R7, 0x00000000)  returns 0x00 (0000ms, 0279ms total)
T4BB0 000:433 JLINK_WriteReg(R8, 0x00000000)  returns 0x00 (0001ms, 0280ms total)
T4BB0 000:434 JLINK_WriteReg(R9, 0x20000160)  returns 0x00 (0000ms, 0280ms total)
T4BB0 000:434 JLINK_WriteReg(R10, 0x00000000)  returns 0x00 (0000ms, 0280ms total)
T4BB0 000:434 JLINK_WriteReg(R11, 0x00000000)  returns 0x00 (0000ms, 0280ms total)
T4BB0 000:434 JLINK_WriteReg(R12, 0x00000000)  returns 0x00 (0000ms, 0280ms total)
T4BB0 000:434 JLINK_WriteReg(R13 (SP), 0x20000800)  returns 0x00 (0000ms, 0280ms total)
T4BB0 000:434 JLINK_WriteReg(R14, 0x20000001)  returns 0x00 (0000ms, 0280ms total)
T4BB0 000:434 JLINK_WriteReg(R15 (PC), 0x20000020)  returns 0x00 (0000ms, 0280ms total)
T4BB0 000:434 JLINK_WriteReg(XPSR, 0x01000000)  returns 0x00 (0000ms, 0280ms total)
T4BB0 000:434 JLINK_WriteReg(MSP, 0x20000800)  returns 0x00 (0000ms, 0280ms total)
T4BB0 000:434 JLINK_WriteReg(PSP, 0x20000800)  returns 0x00 (0000ms, 0280ms total)
T4BB0 000:434 JLINK_WriteReg(CFBP, 0x00000000)  returns 0x00 (0000ms, 0280ms total)
T4BB0 000:434 JLINK_SetBPEx(Addr = 0x20000000, Type = 0xFFFFFFF2)  returns 0x0000000F (0000ms, 0280ms total)
T4BB0 000:434 JLINK_Go() (0003ms, 0283ms total)
T4BB0 000:437 JLINK_IsHalted() -- CPU_ReadMem(2 bytes @ 0x20000000)  returns TRUE (0006ms, 0289ms total)
T4BB0 000:443 JLINK_ReadReg(R15 (PC))  returns 0x20000000 (0000ms, 0283ms total)
T4BB0 000:443 JLINK_ClrBPEx(BPHandle = 0x0000000F)  returns 0x00 (0000ms, 0283ms total)
T4BB0 000:443 JLINK_ReadReg(R0)  returns 0x00000000 (0000ms, 0283ms total)
T4BB0 000:444 JLINK_WriteReg(R0, 0x0800B800)  returns 0x00 (0000ms, 0283ms total)
T4BB0 000:444 JLINK_WriteReg(R1, 0x00000400)  returns 0x00 (0000ms, 0283ms total)
T4BB0 000:444 JLINK_WriteReg(R2, 0x000000FF)  returns 0x00 (0000ms, 0283ms total)
T4BB0 000:444 JLINK_WriteReg(R3, 0x00000000)  returns 0x00 (0001ms, 0284ms total)
T4BB0 000:445 JLINK_WriteReg(R4, 0x00000000)  returns 0x00 (0000ms, 0284ms total)
T4BB0 000:445 JLINK_WriteReg(R5, 0x00000000)  returns 0x00 (0000ms, 0284ms total)
T4BB0 000:445 JLINK_WriteReg(R6, 0x00000000)  returns 0x00 (0000ms, 0284ms total)
T4BB0 000:445 JLINK_WriteReg(R7, 0x00000000)  returns 0x00 (0000ms, 0284ms total)
T4BB0 000:445 JLINK_WriteReg(R8, 0x00000000)  returns 0x00 (0000ms, 0284ms total)
T4BB0 000:445 JLINK_WriteReg(R9, 0x20000160)  returns 0x00 (0000ms, 0284ms total)
T4BB0 000:445 JLINK_WriteReg(R10, 0x00000000)  returns 0x00 (0000ms, 0284ms total)
T4BB0 000:445 JLINK_WriteReg(R11, 0x00000000)  returns 0x00 (0000ms, 0284ms total)
T4BB0 000:445 JLINK_WriteReg(R12, 0x00000000)  returns 0x00 (0000ms, 0284ms total)
T4BB0 000:445 JLINK_WriteReg(R13 (SP), 0x20000800)  returns 0x00 (0000ms, 0284ms total)
T4BB0 000:445 JLINK_WriteReg(R14, 0x20000001)  returns 0x00 (0001ms, 0285ms total)
T4BB0 000:446 JLINK_WriteReg(R15 (PC), 0x20000020)  returns 0x00 (0000ms, 0285ms total)
T4BB0 000:446 JLINK_WriteReg(XPSR, 0x01000000)  returns 0x00 (0000ms, 0285ms total)
T4BB0 000:446 JLINK_WriteReg(MSP, 0x20000800)  returns 0x00 (0000ms, 0285ms total)
T4BB0 000:446 JLINK_WriteReg(PSP, 0x20000800)  returns 0x00 (0000ms, 0285ms total)
T4BB0 000:446 JLINK_WriteReg(CFBP, 0x00000000)  returns 0x00 (0000ms, 0285ms total)
T4BB0 000:446 JLINK_SetBPEx(Addr = 0x20000000, Type = 0xFFFFFFF2)  returns 0x00000010 (0000ms, 0285ms total)
T4BB0 000:446 JLINK_Go() (0003ms, 0288ms total)
T4BB0 000:449 JLINK_IsHalted() -- CPU_ReadMem(2 bytes @ 0x20000000)  returns TRUE (0005ms, 0293ms total)
T4BB0 000:454 JLINK_ReadReg(R15 (PC))  returns 0x20000000 (0000ms, 0288ms total)
T4BB0 000:454 JLINK_ClrBPEx(BPHandle = 0x00000010)  returns 0x00 (0000ms, 0288ms total)
T4BB0 000:454 JLINK_ReadReg(R0)  returns 0x00000000 (0000ms, 0288ms total)
T4BB0 000:455 JLINK_WriteReg(R0, 0x0800BC00)  returns 0x00 (0000ms, 0288ms total)
T4BB0 000:455 JLINK_WriteReg(R1, 0x00000400)  returns 0x00 (0000ms, 0288ms total)
T4BB0 000:455 JLINK_WriteReg(R2, 0x000000FF)  returns 0x00 (0000ms, 0288ms total)
T4BB0 000:455 JLINK_WriteReg(R3, 0x00000000)  returns 0x00 (0000ms, 0288ms total)
T4BB0 000:455 JLINK_WriteReg(R4, 0x00000000)  returns 0x00 (0000ms, 0288ms total)
T4BB0 000:455 JLINK_WriteReg(R5, 0x00000000)  returns 0x00 (0000ms, 0288ms total)
T4BB0 000:455 JLINK_WriteReg(R6, 0x00000000)  returns 0x00 (0000ms, 0288ms total)
T4BB0 000:455 JLINK_WriteReg(R7, 0x00000000)  returns 0x00 (0000ms, 0288ms total)
T4BB0 000:455 JLINK_WriteReg(R8, 0x00000000)  returns 0x00 (0000ms, 0288ms total)
T4BB0 000:455 JLINK_WriteReg(R9, 0x20000160)  returns 0x00 (0000ms, 0288ms total)
T4BB0 000:455 JLINK_WriteReg(R10, 0x00000000)  returns 0x00 (0001ms, 0289ms total)
T4BB0 000:456 JLINK_WriteReg(R11, 0x00000000)  returns 0x00 (0000ms, 0289ms total)
T4BB0 000:456 JLINK_WriteReg(R12, 0x00000000)  returns 0x00 (0000ms, 0289ms total)
T4BB0 000:456 JLINK_WriteReg(R13 (SP), 0x20000800)  returns 0x00 (0000ms, 0289ms total)
T4BB0 000:456 JLINK_WriteReg(R14, 0x20000001)  returns 0x00 (0000ms, 0289ms total)
T4BB0 000:456 JLINK_WriteReg(R15 (PC), 0x20000020)  returns 0x00 (0000ms, 0289ms total)
T4BB0 000:456 JLINK_WriteReg(XPSR, 0x01000000)  returns 0x00 (0000ms, 0289ms total)
T4BB0 000:456 JLINK_WriteReg(MSP, 0x20000800)  returns 0x00 (0000ms, 0289ms total)
T4BB0 000:456 JLINK_WriteReg(PSP, 0x20000800)  returns 0x00 (0000ms, 0289ms total)
T4BB0 000:456 JLINK_WriteReg(CFBP, 0x00000000)  returns 0x00 (0000ms, 0289ms total)
T4BB0 000:456 JLINK_SetBPEx(Addr = 0x20000000, Type = 0xFFFFFFF2)  returns 0x00000011 (0000ms, 0289ms total)
T4BB0 000:456 JLINK_Go() (0004ms, 0293ms total)
T4BB0 000:460 JLINK_IsHalted() -- CPU_ReadMem(2 bytes @ 0x20000000)  returns TRUE (0006ms, 0299ms total)
T4BB0 000:466 JLINK_ReadReg(R15 (PC))  returns 0x20000000 (0000ms, 0293ms total)
T4BB0 000:466 JLINK_ClrBPEx(BPHandle = 0x00000011)  returns 0x00 (0000ms, 0293ms total)
T4BB0 000:466 JLINK_ReadReg(R0)  returns 0x00000000 (0000ms, 0293ms total)
T4BB0 000:466 JLINK_WriteReg(R0, 0x0800C000)  returns 0x00 (0001ms, 0294ms total)
T4BB0 000:467 JLINK_WriteReg(R1, 0x00000400)  returns 0x00 (0000ms, 0294ms total)
T4BB0 000:467 JLINK_WriteReg(R2, 0x000000FF)  returns 0x00 (0000ms, 0294ms total)
T4BB0 000:467 JLINK_WriteReg(R3, 0x00000000)  returns 0x00 (0000ms, 0294ms total)
T4BB0 000:467 JLINK_WriteReg(R4, 0x00000000)  returns 0x00 (0000ms, 0294ms total)
T4BB0 000:467 JLINK_WriteReg(R5, 0x00000000)  returns 0x00 (0000ms, 0294ms total)
T4BB0 000:467 JLINK_WriteReg(R6, 0x00000000)  returns 0x00 (0000ms, 0294ms total)
T4BB0 000:467 JLINK_WriteReg(R7, 0x00000000)  returns 0x00 (0000ms, 0294ms total)
T4BB0 000:467 JLINK_WriteReg(R8, 0x00000000)  returns 0x00 (0000ms, 0294ms total)
T4BB0 000:467 JLINK_WriteReg(R9, 0x20000160)  returns 0x00 (0000ms, 0294ms total)
T4BB0 000:467 JLINK_WriteReg(R10, 0x00000000)  returns 0x00 (0000ms, 0294ms total)
T4BB0 000:467 JLINK_WriteReg(R11, 0x00000000)  returns 0x00 (0000ms, 0294ms total)
T4BB0 000:467 JLINK_WriteReg(R12, 0x00000000)  returns 0x00 (0000ms, 0294ms total)
T4BB0 000:467 JLINK_WriteReg(R13 (SP), 0x20000800)  returns 0x00 (0000ms, 0294ms total)
T4BB0 000:467 JLINK_WriteReg(R14, 0x20000001)  returns 0x00 (0000ms, 0294ms total)
T4BB0 000:467 JLINK_WriteReg(R15 (PC), 0x20000020)  returns 0x00 (0000ms, 0294ms total)
T4BB0 000:467 JLINK_WriteReg(XPSR, 0x01000000)  returns 0x00 (0000ms, 0294ms total)
T4BB0 000:467 JLINK_WriteReg(MSP, 0x20000800)  returns 0x00 (0000ms, 0294ms total)
T4BB0 000:468 JLINK_WriteReg(PSP, 0x20000800)  returns 0x00 (0000ms, 0295ms total)
T4BB0 000:468 JLINK_WriteReg(CFBP, 0x00000000)  returns 0x00 (0000ms, 0295ms total)
T4BB0 000:468 JLINK_SetBPEx(Addr = 0x20000000, Type = 0xFFFFFFF2)  returns 0x00000012 (0000ms, 0295ms total)
T4BB0 000:468 JLINK_Go() (0002ms, 0297ms total)
T4BB0 000:471 JLINK_IsHalted() -- CPU_ReadMem(2 bytes @ 0x20000000)  returns TRUE (0006ms, 0303ms total)
T4BB0 000:477 JLINK_ReadReg(R15 (PC))  returns 0x20000000 (0000ms, 0297ms total)
T4BB0 000:477 JLINK_ClrBPEx(BPHandle = 0x00000012)  returns 0x00 (0000ms, 0297ms total)
T4BB0 000:477 JLINK_ReadReg(R0)  returns 0x00000000 (0000ms, 0297ms total)
T4BB0 000:478 JLINK_WriteReg(R0, 0x0800C400)  returns 0x00 (0000ms, 0297ms total)
T4BB0 000:478 JLINK_WriteReg(R1, 0x00000400)  returns 0x00 (0000ms, 0297ms total)
T4BB0 000:478 JLINK_WriteReg(R2, 0x000000FF)  returns 0x00 (0000ms, 0297ms total)
T4BB0 000:478 JLINK_WriteReg(R3, 0x00000000)  returns 0x00 (0000ms, 0297ms total)
T4BB0 000:478 JLINK_WriteReg(R4, 0x00000000)  returns 0x00 (0000ms, 0297ms total)
T4BB0 000:478 JLINK_WriteReg(R5, 0x00000000)  returns 0x00 (0000ms, 0297ms total)
T4BB0 000:478 JLINK_WriteReg(R6, 0x00000000)  returns 0x00 (0000ms, 0297ms total)
T4BB0 000:478 JLINK_WriteReg(R7, 0x00000000)  returns 0x00 (0000ms, 0297ms total)
T4BB0 000:478 JLINK_WriteReg(R8, 0x00000000)  returns 0x00 (0000ms, 0297ms total)
T4BB0 000:478 JLINK_WriteReg(R9, 0x20000160)  returns 0x00 (0000ms, 0297ms total)
T4BB0 000:478 JLINK_WriteReg(R10, 0x00000000)  returns 0x00 (0000ms, 0297ms total)
T4BB0 000:478 JLINK_WriteReg(R11, 0x00000000)  returns 0x00 (0000ms, 0297ms total)
T4BB0 000:478 JLINK_WriteReg(R12, 0x00000000)  returns 0x00 (0000ms, 0297ms total)
T4BB0 000:478 JLINK_WriteReg(R13 (SP), 0x20000800)  returns 0x00 (0000ms, 0297ms total)
T4BB0 000:478 JLINK_WriteReg(R14, 0x20000001)  returns 0x00 (0001ms, 0298ms total)
T4BB0 000:479 JLINK_WriteReg(R15 (PC), 0x20000020)  returns 0x00 (0000ms, 0298ms total)
T4BB0 000:479 JLINK_WriteReg(XPSR, 0x01000000)  returns 0x00 (0000ms, 0298ms total)
T4BB0 000:479 JLINK_WriteReg(MSP, 0x20000800)  returns 0x00 (0000ms, 0298ms total)
T4BB0 000:479 JLINK_WriteReg(PSP, 0x20000800)  returns 0x00 (0000ms, 0298ms total)
T4BB0 000:479 JLINK_WriteReg(CFBP, 0x00000000)  returns 0x00 (0000ms, 0298ms total)
T4BB0 000:479 JLINK_SetBPEx(Addr = 0x20000000, Type = 0xFFFFFFF2)  returns 0x00000013 (0000ms, 0298ms total)
T4BB0 000:479 JLINK_Go() (0002ms, 0300ms total)
T4BB0 000:482 JLINK_IsHalted() -- CPU_ReadMem(2 bytes @ 0x20000000)  returns TRUE (0005ms, 0305ms total)
T4BB0 000:487 JLINK_ReadReg(R15 (PC))  returns 0x20000000 (0000ms, 0300ms total)
T4BB0 000:487 JLINK_ClrBPEx(BPHandle = 0x00000013)  returns 0x00 (0001ms, 0301ms total)
T4BB0 000:488 JLINK_ReadReg(R0)  returns 0x00000000 (0000ms, 0301ms total)
T4BB0 000:488 JLINK_WriteReg(R0, 0x0800C800)  returns 0x00 (0001ms, 0302ms total)
T4BB0 000:489 JLINK_WriteReg(R1, 0x00000400)  returns 0x00 (0000ms, 0302ms total)
T4BB0 000:489 JLINK_WriteReg(R2, 0x000000FF)  returns 0x00 (0000ms, 0302ms total)
T4BB0 000:489 JLINK_WriteReg(R3, 0x00000000)  returns 0x00 (0000ms, 0302ms total)
T4BB0 000:489 JLINK_WriteReg(R4, 0x00000000)  returns 0x00 (0000ms, 0302ms total)
T4BB0 000:489 JLINK_WriteReg(R5, 0x00000000)  returns 0x00 (0000ms, 0302ms total)
T4BB0 000:489 JLINK_WriteReg(R6, 0x00000000)  returns 0x00 (0000ms, 0302ms total)
T4BB0 000:489 JLINK_WriteReg(R7, 0x00000000)  returns 0x00 (0000ms, 0302ms total)
T4BB0 000:489 JLINK_WriteReg(R8, 0x00000000)  returns 0x00 (0000ms, 0302ms total)
T4BB0 000:489 JLINK_WriteReg(R9, 0x20000160)  returns 0x00 (0000ms, 0302ms total)
T4BB0 000:489 JLINK_WriteReg(R10, 0x00000000)  returns 0x00 (0000ms, 0302ms total)
T4BB0 000:489 JLINK_WriteReg(R11, 0x00000000)  returns 0x00 (0000ms, 0302ms total)
T4BB0 000:489 JLINK_WriteReg(R12, 0x00000000)  returns 0x00 (0000ms, 0302ms total)
T4BB0 000:489 JLINK_WriteReg(R13 (SP), 0x20000800)  returns 0x00 (0000ms, 0302ms total)
T4BB0 000:489 JLINK_WriteReg(R14, 0x20000001)  returns 0x00 (0000ms, 0302ms total)
T4BB0 000:490 JLINK_WriteReg(R15 (PC), 0x20000020)  returns 0x00 (0000ms, 0303ms total)
T4BB0 000:490 JLINK_WriteReg(XPSR, 0x01000000)  returns 0x00 (0000ms, 0303ms total)
T4BB0 000:490 JLINK_WriteReg(MSP, 0x20000800)  returns 0x00 (0000ms, 0303ms total)
